source __fw0_adp5360_map_prints.gdb
=== HW6 FW0 ADP5360 CONFIGURATION MAP ===
magic                     = 0x48364d50
version                   = 0x1
phase                     = 0x62ff
complete                  = 0x1
success                   = 0x1
duration_ticks            = 35
attempted_count           = 55
read_count                = 55
failure_count             = 0
identity_match            = 0x1

--- decoded configuration anchors ---
charger_function          = 0x2c
battery_thermistor_ctrl   = 0x0
battery_protection_ctrl   = 0x3
battery_capacity_code     = 0x32
battery_capacity_mah      = 100
fuel_gauge_mode           = 0x50
fuel_gauge_enabled        = 0x0
fuel_gauge_sleep_mode     = 0x0
buck_config               = 0x31
buck_target_mv            = 1800
buckboost_config          = 0x18
buckboost_target_mv       = 3300
supervisory               = 0x80
fault                     = 0x0
pgood                     = 0x7
interrupt_enable1         = 0x0
interrupt_enable2         = 0x0
interrupt_flag1           = 0x0
interrupt_flag2           = 0x0
shipmode                  = 0x0
--- ID, charger, thermistor, protection: 0x00..0x15 ---
reg 0x00 = 0x10  status=0x0  error=0x0
reg 0x01 = 0x08  status=0x0  error=0x0
reg 0x02 = 0x81  status=0x0  error=0x0
reg 0x03 = 0x7a  status=0x0  error=0x0
reg 0x04 = 0x29  status=0x0  error=0x0
reg 0x05 = 0x2b  status=0x0  error=0x0
reg 0x06 = 0x07  status=0x0  error=0x0
reg 0x07 = 0x2c  status=0x0  error=0x0
reg 0x08 = 0x00  status=0x0  error=0x0
reg 0x09 = 0x00  status=0x0  error=0x0
reg 0x0a = 0x00  status=0x0  error=0x0
reg 0x0b = 0x56  status=0x0  error=0x0
reg 0x0c = 0x8f  status=0x0  error=0x0
reg 0x0d = 0x71  status=0x0  error=0x0
reg 0x0e = 0xb4  status=0x0  error=0x0
reg 0x0f = 0x00  status=0x0  error=0x0
reg 0x10 = 0x00  status=0x0  error=0x0
reg 0x11 = 0x03  status=0x0  error=0x0
reg 0x12 = 0x90  status=0x0  error=0x0
reg 0x13 = 0xe6  status=0x0  error=0x0
reg 0x14 = 0x78  status=0x0  error=0x0
reg 0x15 = 0xe8  status=0x0  error=0x0
--- fuel gauge: 0x16..0x28 ---
reg 0x16 = 0x7d  status=0x0  error=0x0
reg 0x17 = 0x91  status=0x0  error=0x0
reg 0x18 = 0x94  status=0x0  error=0x0
reg 0x19 = 0x99  status=0x0  error=0x0
reg 0x1a = 0x9e  status=0x0  error=0x0
reg 0x1b = 0xa3  status=0x0  error=0x0
reg 0x1c = 0xab  status=0x0  error=0x0
reg 0x1d = 0xb5  status=0x0  error=0x0
reg 0x1e = 0xc4  status=0x0  error=0x0
reg 0x1f = 0xd5  status=0x0  error=0x0
reg 0x20 = 0x32  status=0x0  error=0x0
reg 0x21 = 0x00  status=0x0  error=0x0
reg 0x22 = 0x40  status=0x0  error=0x0
reg 0x23 = 0x00  status=0x0  error=0x0
reg 0x24 = 0x00  status=0x0  error=0x0
reg 0x25 = 0x00  status=0x0  error=0x0
reg 0x26 = 0x00  status=0x0  error=0x0
reg 0x27 = 0x50  status=0x0  error=0x0
reg 0x28 = 0x00  status=0x0  error=0x0
--- regulators, supervisor, IRQ, ship mode: 0x29..0x36 ---
reg 0x29 = 0x31  status=0x0  error=0x0
reg 0x2a = 0x18  status=0x0  error=0x0
reg 0x2b = 0x18  status=0x0  error=0x0
reg 0x2c = 0x13  status=0x0  error=0x0
reg 0x2d = 0x80  status=0x0  error=0x0
reg 0x2e = 0x00  status=0x0  error=0x0
reg 0x2f = 0x07  status=0x0  error=0x0
reg 0x30 = 0x00  status=0x0  error=0x0
reg 0x31 = 0x00  status=0x0  error=0x0
reg 0x32 = 0x00  status=0x0  error=0x0
reg 0x33 = 0x00  status=0x0  error=0x0
reg 0x34 = 0x00  status=0x0  error=0x0
reg 0x35 = 0x00  status=0x0  error=0x0
reg 0x36 = 0x00  status=0x0  error=0x0
=== END HW6 FW0 ADP5360 CONFIGURATION MAP ===
